q	I(q)	SD
0.01551	177.246	5.03634
0.01662	177.056	4.6675
0.01772	174.984	4.29629
0.01882	166.485	3.98115
0.01992	174.582	3.73291
0.02102	161.547	3.65014
0.02213	155.945	3.39694
0.02323	155.56	3.21583
0.02433	154.087	3.00702
0.02543	148.94	2.91265
0.02653	144.356	2.81791
0.02764	131.54	2.61383
0.02874	128.354	2.54112
0.02984	130.976	2.47538
0.03094	124	2.39885
0.03205	121.245	2.32903
0.03315	116.561	2.27483
0.03425	109.127	2.24467
0.03535	109.263	2.22513
0.03645	102.767	2.17043
0.03756	100.234	2.14534
0.03866	97.6942	2.09787
0.03976	93.9329	2.05855
0.04086	90.8492	2.0262
0.04196	87.4784	1.98122
0.04307	83.9246	1.96891
0.04417	81.2784	1.94575
0.04527	77.4746	1.92489
0.04637	76.4567	1.91429
0.04748	71.403	1.89872
0.04858	72.6955	1.90818
0.04968	68.494	1.8741
0.05078	66.4574	1.86483
0.05188	66.4507	1.83156
0.05299	57.6888	1.79967
0.05409	58.1992	1.77307
0.05519	59.3978	1.7755
0.05629	55.6373	1.75547
0.0574	55.65	1.74877
0.0585	53.3314	1.74351
0.0596	47.3217	1.72229
0.0607	48.8008	1.72498
0.0618	47.588	1.72658
0.06291	45.3231	1.71469
0.06401	45.6336	1.72025
0.06511	41.4299	1.69756
0.06621	43.7702	1.68844
0.06731	38.6858	1.669
0.06842	38.1254	1.64889
0.06952	37.6052	1.65391
0.07047	35.1937	1.47443
0.07092	34.5276	1.4679
0.07137	32.628	1.45732
0.07182	32.3005	1.26398
0.07217	32.4333	1.447
0.07263	33.39	1.4717
0.07308	34.7618	1.47964
0.07353	34.6135	1.46532
0.07394	32.5575	1.26684
0.07433	30.7633	1.45151
0.07479	31.5036	1.45636
0.07524	29.6213	1.45427
0.07569	32.5196	1.45966
0.07605	31.847	1.23918
0.07649	28.7046	1.43774
0.07695	29.4413	1.43602
0.0774	30.5088	1.44301
0.07782	26.6014	1.21598
0.0782	30.5425	1.44894
0.07865	27.2673	1.43316
0.07911	29.2065	1.42742
0.07956	28.3616	1.41787
0.07993	27.3367	1.23713
0.08036	28.3907	1.42087
0.08081	28.2892	1.41232
0.08127	25.321	1.41662
0.08169	25.7399	1.20243
0.08207	26.2625	1.40712
0.08252	26.287	1.40939
0.08297	26.6917	1.41001
0.08343	27.3184	1.40552
0.08381	25.5036	1.20787
0.08423	24.968	1.39495
0.08468	24.1062	1.40684
0.08513	25.1666	1.41691
0.08557	25.2378	1.21653
0.08594	24.6848	1.39831
0.08639	26.0476	1.39886
0.08684	24.1975	1.39347
0.08729	23.9	1.39062
0.08769	23.6591	1.20005
0.0881	18.9829	1.37716
0.08855	22.9269	1.38826
0.089	21.5911	1.38571
0.08945	20.1239	0.76902
0.08981	18.9727	1.23597
0.09026	20.1811	1.24446
0.09071	21.398	1.23383
0.09116	20.8641	1.22896
0.09157	21.0975	0.77651
0.09197	19.8704	1.22267
0.09242	22.227	1.23315
0.09287	19.5087	1.22404
0.09332	20.3137	1.21357
0.09368	21.4934	0.79942
0.09413	19.7793	1.21968
0.09458	20.0532	1.21005
0.09503	19.911	1.21223
0.09544	18.6371	0.77501
0.09583	19.4895	1.21168
0.09629	19.2327	1.20428
0.09674	20.299	1.21623
0.09719	20.0724	0.80646
0.09756	19.6086	0.77396
0.09799	17.3997	0.79675
0.09845	18.5755	0.79404
0.0989	18.4552	0.79958
0.09932	17.4047	0.75875
0.0997	15.6031	0.79571
0.10015	16.8777	0.79222
0.10061	18.438	0.80036
0.10106	16.6273	0.79675
0.10144	16.5638	0.75625
0.10186	16.373	0.79635
0.10231	16.1438	0.8004
0.10277	17.0221	0.79251
0.1032	16.0128	0.74789
0.10357	16.6775	0.79654
0.10402	14.8314	0.7977
0.10447	15.1845	0.79988
0.10493	18.045	0.79367
0.10532	15.6855	0.73075
0.10573	14.4148	0.7911
0.10618	16.4057	0.79207
0.10663	15.9291	0.78892
0.10708	15.0275	0.734
0.10744	14.9479	0.78283
0.10789	13.8986	0.79503
0.10834	15.7103	0.78656
0.10879	12.7396	0.78071
0.1092	12.2477	0.73982
0.1096	14.3894	0.78522
0.11005	13.2336	0.78255
0.1105	14.3182	0.78238
0.11095	12.0435	0.77762
0.11131	13.1857	0.73546
0.11176	12.762	0.77008
0.11221	12.2418	0.77166
0.11266	14.1765	0.77811
0.11307	13.1617	0.73693
0.11347	13.684	0.77765
0.11392	12.0714	0.77755
0.11437	11.5428	0.77869
0.11482	12.2119	0.78054
0.11519	12.4317	0.73201
0.11563	11.6375	0.77137
0.11608	12.3386	0.77458
0.11653	12.4799	0.77268
0.11695	11.9182	0.72403
0.11733	12.8405	0.77549
0.11779	11.5292	0.77765
0.11824	12.2532	0.77038
0.11869	10.9464	0.76297
0.11907	10.9869	0.73461
0.11949	10.7618	0.7752
0.11995	11.4987	0.77255
0.1204	12.6015	0.7745
0.12083	10.184	0.72727
0.1212	10.0197	0.76235
0.12165	9.74119	0.76236
0.12211	11.3591	0.76801
0.12256	9.09329	0.76166
0.12295	11.0054	0.71412
0.12336	9.58495	0.75437
0.12381	9.86535	0.75624
0.12427	10.2135	0.76641
0.12471	10.0875	0.72428
0.12507	9.56948	0.76635
0.12552	10.8416	0.77011
0.12597	10.3147	0.76011
0.12643	9.39678	0.75632
0.12682	9.32	0.71274
0.12723	11.4555	0.75815
0.12768	11.0833	0.76637
0.12813	9.13722	0.765
0.12859	9.01073	0.76006
0.12894	9.53786	0.70337
0.12939	8.12871	0.7632
0.12984	8.55319	0.76168
0.13029	8.81501	0.76624
0.1307	9.12168	0.72414
0.1311	9.55372	0.75818
0.13155	8.05001	0.75636
0.132	8.60694	0.75948
0.13245	8.89822	0.75953
0.13282	9.55663	0.72526
0.13326	7.85349	0.74663
0.13371	8.21771	0.74041
0.13416	7.002	0.74705
0.13458	8.19218	0.73852
0.13497	5.75683	0.7622
0.13542	8.19696	0.7586
0.13587	8.52283	0.74989
0.13632	7.99342	0.76309
0.1367	6.67303	0.71868
0.13713	6.94033	0.75299
0.13758	8.77933	0.75246
0.13803	6.59943	0.74993
0.13846	7.74433	0.70913
0.13883	5.87691	0.75211
0.13929	6.74008	0.75714
0.13974	6.56781	0.74323
0.14019	6.43351	0.75486
0.14058	8.50369	0.72149
0.14099	7.37337	0.75529
0.14144	7.2261	0.75301
0.1419	5.98207	0.75109
0.14234	6.34028	0.71772
0.1427	7.08771	0.76274
0.14315	7.04877	0.76271
0.14361	6.88998	0.75558
0.14406	6.52149	0.75372
0.14445	5.89239	0.68516
0.14486	7.07272	0.75525
0.14531	5.9024	0.76586
0.14577	6.33171	0.76099
0.14622	6.77919	0.70464
0.14657	4.91093	0.75121
0.14702	6.12731	0.75338
0.14747	6.17104	0.75172
0.14793	6.1815	0.75024
0.14833	5.74521	0.70643
0.14873	7.1518	0.76321
0.14918	5.23511	0.75872
0.14963	6.16323	0.75834
0.15009	4.41392	0.75027
0.15045	6.03935	0.69651
0.15089	5.2859	0.75187
0.15134	4.00757	0.75052
0.15179	6.3548	0.74753
0.15221	4.34084	0.69944
0.1526	7.04555	0.74052
0.15305	5.20465	0.74601
0.1535	5.02798	0.74939
0.15395	4.68271	0.74764
0.15433	5.21297	0.69361
0.15476	4.56772	0.74808
0.15521	3.11576	0.74307
0.15566	4.6883	0.74721
0.15609	5.62304	0.70499
0.15646	4.73851	0.74884
0.15692	5.02651	0.7427
0.15737	5.09498	0.74459
0.15782	5.2629	0.75223
0.1582	4.90737	0.69421
0.15863	4.09166	0.74244
0.15908	3.70293	0.73804
0.15953	4.51603	0.74675
0.15997	4.71059	0.71115
0.16033	4.94465	0.75387
0.16079	4.14784	0.74921
0.16124	5.95712	0.74417
0.16169	4.24533	0.74556
0.16208	5.14109	0.72993
0.16249	4.32757	0.74661
0.16295	3.4839	0.73568
0.1634	4.11799	0.73512
0.16384	3.37604	0.69217
0.1642	4.64372	0.73942
0.16465	3.8242	0.73507
0.16511	4.2801	0.73981
0.16556	5.44095	0.74408
0.16596	3.9157	0.6869
0.16636	4.65881	0.74978
0.16681	2.40247	0.74239
0.16727	4.6296	0.75202
0.16772	3.96676	0.74937
0.16808	3.3683	0.6955
0.16852	3.11224	0.73711
0.16897	3.34892	0.7291
0.16942	2.75291	0.73055
0.16984	3.13999	0.70574
0.17023	4.9121	0.74288
0.17068	4.34637	0.75171
0.17113	4.43418	0.7493
0.17158	4.69873	0.74471
0.17196	4.4977	0.69002
0.17239	3.53725	0.73888
0.17284	3.11681	0.73166
0.17329	4.26994	0.74177
0.17372	4.39467	0.69116
0.1741	2.14057	0.73954
0.17455	3.47589	0.74342
0.175	3.28863	0.74411
0.17545	3.45043	0.74209
0.17583	2.68755	0.68544
0.17626	2.52109	0.73911
0.17671	2.33918	0.73308
0.17716	3.39096	0.73165
0.1776	4.12654	0.69467
0.17797	4.12181	0.74655
0.17842	4.0954	0.74939
0.17887	5.21412	0.74488
0.17932	2.9479	0.73829
0.17971	3.03121	0.69036
0.18013	3.60283	0.74835
0.18058	3.65837	0.74811
0.18103	2.79177	0.74033
0.18147	2.646	0.68552
0.18183	2.66959	0.7361
0.18229	2.26214	0.731
0.18274	3.56886	0.7397
0.18319	2.82242	0.74684
0.18359	2.22887	0.68379
0.18399	2.8254	0.74426
0.18445	2.65947	0.73809
0.1849	4.06962	0.73608
0.18535	2.25882	0.7355
0.18571	2.64246	0.69197
0.18615	3.30284	0.74196
0.1866	2.44049	0.73579
0.18706	1.75626	0.73054
0.18747	2.5412	0.68852
0.18786	2.61576	0.73972
0.18831	3.25615	0.7389
0.18876	2.52376	0.73313
0.18922	3.3634	0.73484
0.18958	1.38189	0.68368
0.19002	4.29353	0.7416
0.19047	2.05993	0.73898
0.19092	3.21575	0.74182
0.19135	3.68146	0.68838
0.19173	1.74927	0.74246
0.19218	1.45369	0.737
0.19263	1.37615	0.72876
0.19308	2.01134	0.72547
0.19346	2.67878	0.68465
0.19389	2.74469	0.73209
0.19434	2.64949	0.73673
0.19479	1.19838	0.73087
0.19523	1.82389	0.67613
0.1956	3.15474	0.73639
0.19605	1.71967	0.73619
0.1965	2.13932	0.73443
0.19695	3.11577	0.73431
0.19734	2.76036	0.69047
0.19776	1.71876	0.72395
0.19821	3.15901	0.73873
0.19866	2.11832	0.74309
0.1991	2.20025	0.69319
0.19947	1.88538	0.74809
0.19992	1.27967	0.73598
0.20037	1.25731	0.7311
0.20082	1.79444	0.71894
0.20122	1.46498	0.68641
0.20162	2.75065	0.73256
0.20208	3.57412	0.73439
0.20253	2.66135	0.73573
0.20298	2.47178	0.73317
0.20333	2.35101	0.68954
0.20378	1.21186	0.72708
0.20424	1.04633	0.72773
0.20469	3.73544	0.73322
0.2051	1.40027	0.67934
0.20549	1.98417	0.73161
0.20594	1.39137	0.73864
0.2064	1.99213	0.74359
0.20685	1.95727	0.73907
0.20721	3.31912	0.69934
0.20765	1.52185	0.73661
0.2081	2.42035	0.73392
0.20856	1.12138	0.72963
0.20898	2.3704	0.68213
0.20936	1.71524	0.73201
0.20981	2.81251	0.74061
0.21026	1.512	0.72776
0.21072	2.61151	0.72742
0.21109	1.91321	0.67941
0.21152	2.31399	0.72848
0.21215	1.67854	0.60434
0.2126	1.05686	0.73026
0.21305	0.86129	0.71931
0.21351	1.97341	0.72442
0.21391	0.43779	0.67719
0.21431	1.52096	0.73053
0.21476	1.24653	0.73721
0.21521	3.0418	0.73745
0.21566	0.29008	0.73182
0.21603	0.98636	0.67782
0.21647	0.90725	0.71988
0.21692	1.63692	0.72043
0.21737	0.78321	0.72285
0.21779	1.73433	0.67708
0.21818	2.95735	0.72679
0.21863	0.98177	0.72706
0.21908	2.01623	0.7324
0.21953	2.31015	0.7344
0.21991	2.81288	0.6773
0.22034	1.4449	0.72573
0.22079	2.30826	0.7253
0.22124	0.93608	0.72041
0.22167	1.84922	0.67859
0.22204	1.15768	0.72088
0.2225	1.17097	0.72509
0.22295	1.21041	0.72772
0.2234	1.00684	0.72795
0.22378	0.93806	0.66948
0.2242	0.77924	0.71978
0.22466	1.84605	0.71955
0.22511	-0.5634	0.71278
0.22555	2.41295	0.67165
0.22591	-0.45302	0.71452
0.22636	1.73828	0.71884
0.22682	1.44266	0.71556
0.22727	2.26022	0.72196
0.22766	0.792	0.66355
0.22807	1.37465	0.71628
0.22853	1.88233	0.7158
0.22898	1.99294	0.71613
0.22942	1.8902	0.67349
0.22978	1.38315	0.72205
0.23023	0.85058	0.71614
0.23068	0.0903	0.71279
0.23114	1.27205	0.72238
0.23154	1.5103	0.6689
0.23194	0.24022	0.71869
0.23239	0.93635	0.71915
0.23284	1.01856	0.72147
0.2333	1.25576	0.71524
0.23366	1.60128	0.66258
0.2341	0.91181	0.7134
0.23455	2.17748	0.71644
0.235	0.41147	0.71381
0.23542	0.89162	0.65942
0.23581	1.79138	0.71823
0.23626	1.47313	0.71764
0.23671	0.39461	0.71249
0.23716	2.90693	0.71523
0.23754	0.84553	0.65628
0.23797	2.30848	0.70615
0.23842	1.99753	0.70998
0.23887	1.09503	0.71259
0.2393	2.04686	0.65919
0.23968	2.17996	0.71345
0.24013	1.19908	0.71411
0.24058	0.28409	0.70977
0.24103	1.56544	0.70309
0.24141	0.89307	0.65689
0.24184	1.79476	0.71045
0.24229	1.07647	0.70849
0.24274	1.56133	0.70602
0.24318	1.5318	0.66019
0.24354	0.40346	0.70399
0.244	1.33817	0.71009
0.24445	1.02747	0.70935
0.2449	1.02246	0.70665
0.24529	3.32696	0.66553
0.2457	1.51715	0.70886
0.24616	0.66606	0.71263
0.24661	1.886	0.72153
0.24705	1.08771	0.65818
0.24741	0.46523	0.70936
0.24786	0.37272	0.70742
0.24832	0.97885	0.71681
0.24877	0.88205	0.71074
0.24917	2.70682	0.658
0.24957	1.08401	0.71513
0.25002	-0.3502	0.70684
0.25048	1.41751	0.71147
0.25093	1.90608	0.71174
0.25128	0.3666	0.6501
0.25173	2.12355	0.70985
0.25218	1.48621	0.70863
0.25264	1.22707	0.70533
0.25305	2.4666	0.65691
0.25344	1.31081	0.70679
0.25389	2.34152	0.70799
0.25434	1.47917	0.70483
0.25479	2.12067	0.70815
0.25516	2.38828	0.65581
0.2556	1.15696	0.69835
0.25605	1.47663	0.6942
0.2565	1.48103	0.70581
0.25693	0.71775	0.65296
0.25731	1.70054	0.70609
0.25776	1.38979	0.70467
0.25821	0.05074	0.70692
0.25866	0.50501	0.70406
0.25904	1.69622	0.65594
0.25947	1.59417	0.71219
0.25992	1.87513	0.70903
0.26037	2.18712	0.71174
0.2608	1.01351	0.65629
0.26118	0.9352	0.70564
0.26163	1.12592	0.70863
0.26208	0.98329	0.70657
0.26253	0.8476	0.71078
0.26292	2.34425	0.6625
0.26334	1.60366	0.70718
0.26379	-0.185	0.70282
0.26424	2.24443	0.70507
0.26468	1.32212	0.6577
0.26504	1.76531	0.70722
0.26549	1.36706	0.70432
0.26595	1.22271	0.70086
0.2664	0.2646	0.69854
0.2668	1.20357	0.65608
0.2672	2.05092	0.70499
0.26766	1.82614	0.7103
0.26811	0.49706	0.70301
0.26856	2.11354	0.69919
0.26891	1.88436	0.66236
0.26936	1.73989	0.70663
0.26982	1.48606	0.70525
0.27027	1.07541	0.70324
0.27068	1.34098	0.65843
0.27107	0.90895	0.70413
0.27152	1.24565	0.70641
0.27198	0.73126	0.7042
0.27243	1.83059	0.70735
0.27279	0.81241	0.65444
0.27323	1.064	0.70741
0.27368	-0.35104	0.70714
0.27414	0.3114	0.70384
0.27455	2.03278	0.65774
0.27494	-0.01855	0.70056
0.27539	0.45798	0.69906
0.27584	0.77129	0.70474
0.2763	0.37142	0.70221
0.27667	0.78338	0.6501
0.2771	0.60558	0.69888
0.27755	1.42727	0.70243
0.278	1.59127	0.70072
0.27843	1.20235	0.65111
0.27881	2.1118	0.70223
0.27926	-0.25784	0.69758
0.27971	0.61526	0.69445
0.28016	2.53318	0.69771
0.28055	0.54024	0.64968
0.28097	0.26172	0.69575
0.28142	0.1755	0.691
0.28187	0.88382	0.69018
0.28231	1.19234	0.64886
0.28268	1.33873	0.69164
0.28313	1.85787	0.69253
0.28358	0.91072	0.69355
0.28403	2.94359	0.70097
0.28443	2.13735	0.64793
0.28484	0.87496	0.69216
0.28529	1.14256	0.69213
0.28574	1.32083	0.69452
0.28619	1.43645	0.6459
0.28654	1.35411	0.69276
0.287	1.68982	0.69792
0.28745	1.65826	0.69767
0.2879	0.10493	0.69634
0.28831	1.73536	0.64485
0.2887	1.67335	0.69448
0.28916	2.17161	0.70057
0.28961	1.23272	0.68716
0.29006	0.67354	0.68794
0.29042	0.99479	0.64163
0.29086	1.143	0.6824
0.29132	0.20681	0.68417
0.29177	1.59173	0.68791
0.29218	1.26001	0.64071
0.29257	1.84179	0.68702
0.29302	2.03075	0.68591
0.29347	1.40147	0.68463
0.29393	0.36648	0.68145
0.2943	1.49333	0.64369
0.29473	0.5381	0.67856
0.29518	2.07938	0.68329
0.29563	1.06946	0.68624
0.29606	1.66885	0.64764
0.29644	1.48956	0.68959
0.29689	1.33094	0.69488
0.29734	1.48857	0.69445
0.29779	0.95529	0.68384
0.29818	0.33277	0.63423
0.2986	1.42262	0.68471
0.29905	0.14175	0.68153
0.2995	1.30661	0.68276
0.29994	1.03034	0.64341
0.30031	1.73326	0.68976
0.30076	0.6771	0.69251
0.30121	1.89812	0.69389
0.30166	0.79898	0.69359
0.30206	1.93419	0.64332
0.30247	0.25958	0.68647
0.30292	0.65687	0.68836
0.30337	1.4597	0.69294
0.30382	0.96318	0.65821
0.30417	1.09612	0.701
0.30463	2.28772	0.69812
0.30508	1.00303	0.6929
0.30553	1.14416	0.68223
0.30593	0.98956	0.6353
0.30634	-0.31395	0.67843
0.30679	2.35372	0.68369
0.30724	0.27293	0.68465
0.30769	0.47663	0.68625
0.30805	2.62632	0.65395
0.3085	2.01565	0.68613
0.30895	0.0267	0.68345
0.3094	0.53072	0.6817
0.30981	1.45139	0.65136
0.3102	1.58206	0.68415
0.31066	1.11502	0.68213
0.31111	1.46173	0.68416
0.31156	0.92313	0.68209
0.31193	-0.1694	0.64219
0.31236	0.92359	0.68536
0.31282	1.03329	0.68786
0.31327	1.87509	0.69203
0.31369	0.60547	0.64062
0.31407	1.80819	0.68765
0.31452	1.16702	0.68866
0.31498	0.08288	0.69698
0.31543	0.26251	0.70081
0.31581	1.09875	0.64394
0.31623	1.04818	0.69309
0.31668	0.31511	0.69255
0.31713	1.89035	0.69887
0.31757	0.863	0.65196
0.31794	0.84753	0.70138
0.31839	1.98795	0.70339
0.31884	1.09467	0.70214
0.3193	2.58668	0.69877
0.31969	2.53047	0.6652
0.3201	1.34373	0.69418
0.32055	1.59882	0.69392
0.321	0.44589	0.69873
0.32145	1.89121	0.66429
0.32181	1.23277	0.70103
0.32226	1.40749	0.69977
0.32271	1.1218	0.70484
0.32316	0.22699	0.69765
0.32356	1.40553	0.66182
0.32397	1.20659	0.70066
0.32442	1.09462	0.7023
0.32487	1.00753	0.7027
0.32532	1.83065	0.71412
